! S11 = S11
! S12 = S12
! S13 = S13
! S14 = S14
! S21 = S21
! S22 = S22
! S23 = S23
! S24 = S24
! S31 = S31
! S32 = S32
! S33 = S33
! S34 = S34
! S41 = S41
! S42 = S42
! S43 = S43
! S44 = S44
!
! FILE: H:\Public\SJ Yu\Lab\Raw Cable\082817 6.4 30AWG Belden\AFR\1.6M_A01.s4p
!$DUT_CFG_DESC: Default 4-Port Configuration
!$NUMBER_PORTS: 4
!$DIFF_PORT_MAP: 1|2P|2|2P|0|UC|0|UC|
!$PORT_MAP: 1|1|<<<<<<|2|2|>>>>>>|3|3|<<<<<<|4|4|>>>>>>|
!
# MHz S DB R 50.00
!
! FREQ                  		S11                         			   S12                         			   S13                         			   S14
!                       		S21                         			   S22                         			   S23                         			   S24
!                       		S31                         			   S32                         			   S33                         			   S34
!                       		S41                         			   S42                         			   S43                         			   S44
!                       		
!                  	DB     		    ANGLE              	      DB     		    ANGLE              	      DB     		    ANGLE              	      DB     		    ANGLE              	      
10.00000000       -26.5856597555988       31.058799102251      -0.250170665869337     -30.1949081271759       -34.0976197106504      55.4337918185863       -51.5676497373531      147.935887273729    
                 -0.271600563751226     -29.9596776153297       -26.5522055022126      31.7398403583927       -51.7755359183739       148.64899555521        -34.113172888244      55.1506676820281    
                  -34.0476933607377      54.2989961382788       -51.8384661780615      143.626336274799       -26.4192192619167      31.3752634102757      -0.259964561923695     -30.1475932510727    
                  -51.5091763648781      147.064489420909       -34.1325341357767      54.8102731333688      -0.243096247645004       -29.87164024312       -26.2922823115151      32.0936848420664    
               
20.00000000       -23.3109152922077      9.14092065475429      -0.329914164342536     -59.3987561199515       -29.5273635551142      28.2219313752442       -47.7152941708381      97.1139980367992    
                  -0.34762701018044     -59.3204674495105       -23.3359965743382       9.4616925489374       -47.8419467589214      96.4143859733983       -29.6360530281489       28.662910872066    
                  -29.5550451354442      28.0565858394983       -47.7564282021709      96.1078090827958       -23.1382662572583      10.0349782742502      -0.344794739767332     -59.3264333783963    
                  -47.6244551077446      96.3100671954728        -29.612169733092      28.4042938679361      -0.314413002365051     -59.3107927811575       -23.1201212174907      9.69276040703636    
               
30.00000000       -22.9025634217577     -15.7282596174064      -0.380927318194723     -88.5561661633828       -28.5030994913489     0.798162825365439       -45.1163201253068      45.5857232275092    
                 -0.398945639068616     -88.4868070677546       -22.8934862449062     -15.3358899623239       -45.2129208369996      46.0267350496308       -28.6331512688743      1.74436750809028    
                  -28.5114910904801      0.67249592740034       -45.1875316213542      45.9466131477431       -22.6610097096042     -14.6722499542208      -0.392181237221422     -88.4624428669721    
                  -45.1059885269804      45.6087348768571       -28.6075612810693      1.50803821644257      -0.369018950543869     -88.4981857120449       -22.6313750534144     -15.5151329301578    
               
40.00000000       -24.6310237938888     -41.0970291678755      -0.415089523340408     -117.711556913777       -30.0247511157277     -26.6312131310258       -43.7998872085724     -0.71133558295335    
                 -0.433061021457716     -117.656087141959       -24.6192838028118     -39.8607079634251       -43.8140345463258     -0.67153658162021       -30.1604434500455     -24.6049013382448    
                  -30.0377842875193     -26.7010703679565       -43.7799205107363    -0.468190497221032       -24.4171100145759     -39.6994156749726      -0.422596554572752     -117.626644639397    
                  -43.7041514664084    -0.343863613248299       -30.1304737276273     -24.7053466819025      -0.403903236875166     -117.667205140926       -24.3273454660059     -40.7931045558018    
               
50.00000000       -29.6122871776824     -66.7294771327633       -0.44662366190391     -146.905980801125       -35.4442021531546     -52.1506609312772       -43.4479732626488     -40.2472694153096    
                 -0.464746037652857     -146.841890600399       -29.6771899208775     -60.9587859971778       -43.4751228898572     -39.6363636584558       -35.5361486355565     -46.6853746715557    
                  -35.4401326299303     -52.2520850002278       -43.4059165171794     -39.5873324563205       -29.5504208464016     -61.8815859268251      -0.452814090737785      -146.81623656268    
                  -43.4015547815658     -40.2692780701791       -35.4920072836251     -46.7612810914133      -0.436764019811466     -146.854126522227       -29.3292633564285     -64.3710741798916    
               
60.00000000       -60.6422342028131     -32.4877288969424      -0.483119295289535     -176.150650366573       -50.2839372217265      61.2614963083254        -43.578112821541     -70.7672304825089    
                 -0.505782836396242     -176.139870573676       -43.3736693891783     -1.56590401559187       -43.4892736693658     -70.1459436281295       -47.0377216346918      39.1503831031356    
                  -50.3385265032823      59.9427931490401       -43.4399785209932     -69.8327390123075       -45.7618763668498     -6.95261149428704      -0.492936078956795     -176.087084077967    
                  -43.5104381431023     -70.8115276095373        -46.904808488773      38.6399407170624      -0.478962343964472     -176.113494010268       -48.3123528045639     -10.6285002334842    
               
70.00000000       -30.1299948729749      56.3093175897018      -0.527791482347904      154.686659064656       -33.4582678222616      61.2520666991448       -42.8239133522791     -93.7619171406459    
                 -0.548913874893372      154.704149749387       -29.5273017430175      41.5202153829045       -42.6677145279063     -93.2481900164642       -33.5078580676816      55.1575295312973    
                  -33.4744694900537      61.1876953919999       -42.6344787418314     -93.5559984280247        -29.822716582206      48.5904091943291      -0.535762240959953       154.74151595224    
                  -42.8295039102321     -93.5626691050183       -33.5114931136985      55.0066309347978       -0.52425923359549      154.734936428213       -29.6968404215451      48.1139957751468    
               
80.00000000       -25.3961816186615      30.0142449321645      -0.571762901017956      125.619668545035       -29.3527523038311      35.4311712768478       -40.9585101384849     -118.731476499154    
                 -0.592635317512811      125.632868364669       -25.0834136351464      19.4078305379478       -40.8201874201714     -118.830847649253       -29.5121862336894      31.5426656109444    
                  -29.3647627281286      35.4767300431525       -40.7911295746208     -118.726521111336       -25.0804554150246      26.3713659051878      -0.580124928309352      125.659768106379    
                   -40.913579637782     -118.615603601225       -29.4910378558953      31.6034801174262      -0.569812384846559      125.661548155999       -25.0226636284952      23.5928051779793    
               
90.00000000        -24.177668514211      3.23837722651371      -0.607180302894198      96.6094519439565       -28.4263690275841      8.94711326621846       -39.0913372652638      -150.44392312519    
                 -0.628261374199229      96.6236032910701       -23.9349604621113     -6.17198159265079       -38.9936183725414     -150.848594966852       -28.6393597305677      5.70276063649913    
                   -28.428721205941       8.9604438760451       -38.9322143742605     -150.642148511596        -23.782273168475     0.577887321448799      -0.616730664555587       96.652979442868    
                  -39.0394985998886     -150.624825211115       -28.6250040015117      5.72795340948576      -0.605463669616029      96.6588372964651       -23.8041231467008       -3.116765365616    
               
100.00000000       -25.3812388002651     -23.1357991106522      -0.628798780954692      67.6056063518282       -29.9658052926698     -16.7698330595699       -37.8711885483913      174.454669885766    
                 -0.649529670009523      67.6102894173561       -25.1837886540464     -32.0934852838553       -37.8053740632793       174.24866421132       -30.2417057785784     -19.8207901528084    
                  -29.9720649728319     -16.7853139084551       -37.7940617400475      174.265776103489        -25.028540101972     -25.1738310315424      -0.637698217480437       67.653427754652    
                  -37.8420635761515       174.55495525961       -30.2236159356397     -19.7401690478912      -0.627542103967186      67.6588742980866        -25.010732689145     -29.6346109207813    
               
110.00000000        -29.825343521357     -47.4560468695327      -0.648363631926075      38.5365079056393        -35.250063768268     -37.7506619085826       -37.4246748581182      140.309940619021    
                  -0.66941728278594      38.5385245931209       -29.6965111780761     -55.4304749237368       -37.3807138496192      140.359307297408       -35.6736515563889     -41.4580717374121    
                  -35.2446325827109     -37.7300611390381       -37.3368278373957      140.450830722811       -29.5861099786132      -46.586170815461      -0.657506376334345      38.5851330722225    
                  -37.3880223303453      140.475796073367       -35.6609025742573      -41.306069781128      -0.646687152616532      38.5830252205852       -29.5240900115941     -54.3852073820393    
               
120.00000000       -46.2954219253514      -25.279451867347        -0.6749223696232      9.42252076122935       -46.0670423758446      42.0161473771661       -37.3399610800355      110.036142398289    
                 -0.695114437307341      9.42733242613627       -44.1217994208614     -24.1427043159144       -37.2799314893086      110.228537717361       -46.9781484064824      48.1235146425894    
                  -46.0437032884776      41.3945388243339       -37.2632495197988      110.284083708669       -42.1991126198897     -11.2399231007074      -0.683839640126718      9.46983772057289    
                  -37.3036809253892      110.115844514002       -46.9556721465508       47.743743517881      -0.673687219248994      9.47159999601659       -46.5195693043829     -26.8388102780814    
               
130.00000000       -31.3412741310437      62.5850431434367      -0.708001443400003     -19.6636944606289       -33.2852131665584      61.6380284625314         -37.06158879165      83.6192711701429    
                 -0.729260697941684     -19.6583046002977       -31.0270192346534       47.618393435762       -36.9503422704383      83.8953790903679       -33.4771942450263      62.0773103563954    
                  -33.2960437229661      61.5825009918806       -36.9241750550814       83.915151001648       -30.6884145748052      53.9047871430733      -0.718049595559209     -19.6137984309668    
                  -37.0324963862878      83.6982025410365       -33.4625766762405      62.1040236752067      -0.708187370659987     -19.6136338778548       -30.6719720421883      55.4530057286946    
               
140.00000000       -26.1594574065307      39.4581594065818      -0.744812730105785     -48.6783819987413       -29.2627031669911      38.9654355354347       -36.1878338107258       57.708852721034    
                 -0.766318000550082     -48.6766969682974       -25.9916678257773      25.7095558155578       -36.0681785506671      57.6047358715896       -29.4965322878862      38.7721099408856    
                  -29.2701212986578      38.9504714992729       -36.0485676883056      57.7211516159898       -25.5193603687527      34.3848610187557      -0.756903864234746     -48.6335633116229    
                  -36.1723441234316      57.7461174272071       -29.4877582890607      38.7632711665363      -0.747387134775056     -48.6295886731092       -25.5125571723651      31.5231506228215    
               
150.00000000       -24.6705510382988      13.5473784175031       -0.77556398179391      -77.639278441958       -28.3400736739929      13.8717645917077       -35.0477685905191      28.4565104097845    
                 -0.797109146935314     -77.6294802397353       -24.5251929898753    -0.101733349785501        -34.953305694378      28.2597802800377       -28.6206740892377      13.4905799287253    
                    -28.33890589883      13.8817088419108       -34.9359846642744      28.3035079771362       -23.8981915662606      9.27290590062789      -0.789007265133621     -77.5782005178001    
                  -35.0310785719985      28.4857640045382       -28.6065851839909      13.5649416529737      -0.779446958129817     -77.5763200128384       -23.9671524455775      5.01248949312046    
               
160.00000000       -25.6893218950085      -12.151797851749      -0.794478915528081     -106.594865090855        -29.835598251664     -10.7852433001356       -34.2116810054476     -3.52721414932393    
                 -0.816216310669732     -106.589367065051       -25.5562304424899     -26.1354523884502       -34.1248671728514     -3.86451451362638       -30.1971243397948      -11.164476916982    
                  -29.8375276808576     -10.7960076975324       -34.1101697766858     -3.78997219671948       -24.7730775226951     -16.1490593733004      -0.808425871133136       -106.5240358016    
                   -34.181376600042     -3.48788346789494       -30.1755368909039     -11.0885724865279      -0.798099343869856     -106.517906834917       -24.8720500434864      -21.462764577153    
               
170.00000000       -29.9049702461705     -34.5413650700426       -0.80987840837557     -135.611013206434       -34.9680972282522     -30.3960251261956       -33.8294193090889     -35.7822467943252    
                 -0.831077760930064     -135.604693686285        -29.868636715856     -48.9780493674532       -33.7811394442036     -35.9516321628515       -35.4910401506029     -30.4868033420058    
                  -34.9683688200126       -30.40320643897       -33.7667977207893     -35.8580315372982       -28.6657242926962        -37.4593979357      -0.822385380420493     -135.532224075898    
                  -33.8042605624799     -35.6575346835771       -35.4600516103118     -30.3374840202948      -0.812966438116953     -135.527164986442       -28.8412103492218     -45.3157913202137    
               
180.00000000       -43.2976331285406     -6.62229066165728      -0.829822847489028     -164.673937307676       -45.1460268355452      40.5319786486778       -33.7479887562139     -65.8738902289324    
                 -0.850895303240538     -164.666196111439       -43.5086906326279      -18.215359888168       -33.6861266735596     -65.7737055253227       -45.2905013009033      46.4312806605813    
                  -45.2180250272973      40.3781688266673       -33.6846018097717     -65.7306422504908       -39.2420231025551     -21.5786388997843      -0.841146969652038     -164.591891842081    
                  -33.7219888013039     -65.7569702956038       -45.2451361142246      45.6160512665594      -0.830982417536188     -164.586783215352       -42.0637718527809     -34.5763513258057    
               
190.00000000       -31.1880745633875      67.2947749855311      -0.858105151530738      166.278148269234       -33.2824409301436      65.7930725537346       -33.5758509275729     -93.3253167240523    
                 -0.880487906329953      166.282916809976       -31.0365707032579      53.3245256741658       -33.4959891039207     -93.1028699376748       -33.3814419911397      66.4393067273578    
                  -33.2946597288029      65.5586231407494       -33.4767005398592     -93.1254018144495       -31.4003154405071       57.098689401534      -0.870444958165371      166.353732207547    
                  -33.5522918938591     -93.2520949019751       -33.3913957952051       66.467299075081      -0.860793771733504      166.363834508323       -31.4241034245325      58.4666000172182    
               
200.00000000       -25.9820304601683       46.327892438885      -0.892866122482244      137.279879460142       -29.2293229824282      44.2941894254099       -33.0253842690389     -119.983591268044    
                 -0.914457262530671      137.291405333221       -25.8784791575819      32.5505195353253       -32.9411945474006     -119.968295859684       -29.4584893526754      44.8598438548904    
                  -29.2414262228156      44.2633121167619       -32.9148915190007     -119.988582307863       -25.6607662160167      40.2673222842687       -0.90415668231107      137.358666557384    
                  -32.9929212320329     -120.034243091433        -29.452333489352       44.898537922983      -0.895994330238783      137.360634461255       -25.7497277177129      37.6675940865469    
               
210.00000000       -24.4423712814934      20.8355481484872      -0.919970205399284      108.362176143549       -28.2972890225256      19.8593528057338       -32.2414832824987     -148.736760766344    
                  -0.94216534900668      108.372182049402       -24.3189273406105      7.42109931860992       -32.1428800722732     -148.918984800124       -28.6110245003484      20.6678577354706    
                  -28.2993965092084      19.8266187620007       -32.1309687715927     -148.817909153784       -23.7732564303481      15.6138145851426      -0.934384344788523      108.445207445727    
                  -32.2231562597672     -148.740840827219       -28.5946967075337      20.7218913083149      -0.924428139999105      108.452225786147       -23.9581363436969      12.6251467510729    
               
220.00000000       -25.3485414710513     -5.09700603712162      -0.934212416169349      79.4398739345739       -29.8056602931534     -4.15935338653943       -31.5928506451441     -179.615848577176    
                 -0.957169302531859      79.4474744029564       -25.2547856180305     -17.4416720139101       -31.5123791666686     -179.862653978486       -30.2218237060809     -2.65623029486447    
                  -29.8103114463771     -4.20542398928801       -31.5062009020465     -179.786063984924       -24.4443699170272      -9.5335571426177      -0.950041483169345      79.5315874246543    
                  -31.5803515185809     -179.571985052043       -30.1893096233723     -2.59717579857234      -0.938928355867746      79.5455318211845       -24.6148835105135      -12.723649663756    
               
230.00000000       -29.3564143243137     -29.5852326951377      -0.945936734790648      50.4555621808276       -35.0265565983714     -22.3069009280982       -31.2932069355382      148.992873714755    
                 -0.966834649240772      50.4605396967592       -29.2090065562634     -37.4047614184616       -31.2449224996239      148.928387284689        -35.606872169128     -18.6122612283339    
                  -35.0133830122915     -22.3333658271903        -31.226783915558      149.033532817447       -27.9019863179433      -32.647227944683      -0.959137350917352      50.5627973741675    
