!Agilent Technologies,N5224A,MY51441023,A.09.90.17
!Agilent N5224A: A.09.90.17
!Date: Friday, April 14, 2017 16:58:36
!Correction: S11(Full 4 Port(1,2,3,4)) 
!S12(Full 4 Port(1,2,3,4)) 
!S13(Full 4 Port(1,2,3,4)) 
!S14(Full 4 Port(1,2,3,4)) 
!S21(Full 4 Port(1,2,3,4)) 
!S22(Full 4 Port(1,2,3,4)) 
!S23(Full 4 Port(1,2,3,4)) 
!S24(Full 4 Port(1,2,3,4)) 
!S31(Full 4 Port(1,2,3,4)) 
!S32(Full 4 Port(1,2,3,4)) 
!S33(Full 4 Port(1,2,3,4)) 
!S34(Full 4 Port(1,2,3,4)) 
!S41(Full 4 Port(1,2,3,4)) 
!S42(Full 4 Port(1,2,3,4)) 
!S43(Full 4 Port(1,2,3,4)) 
!S44(Full 4 Port(1,2,3,4)) 
!S4P File: Measurements: <S11,S12,S13,S14>,
!<S21,S22,S23,S24>,
!<S31,S32,S33,S34>,
!<S41,S42,S43,S44>:
# Hz S  dB   R 50
10000000 -26.690954 42.046047 -0.17481585 -14.635103 -31.360489 65.563675 -35.80154 -135.50267
-0.2765649 -14.523949 -26.623112 40.120514 -36.196976 -135.7364 -31.672363 61.4981
-31.282206 65.464409 -35.995995 -135.47882 -25.32873 33.297543 0.10875446 -14.483302
-35.935795 -134.7141 -31.892815 60.803436 -0.31369343 -14.400156 -25.91802 37.382374
20000000 -22.517088 36.178143 -0.29340884 -28.439339 -25.98303 53.676502 -31.758684 -153.83736
-0.385342 -28.38728 -22.609667 32.936512 -32.185768 -153.93285 -26.711046 49.318848
-25.842871 53.889519 -31.904629 -154.07571 -22.55986 28.537165 0.013458385 -28.334482
-31.844959 -153.87283 -26.994259 48.683605 -0.41745043 -28.21047 -21.904596 30.896946
30000000 -20.240519 25.43589 -0.39624903 -41.982143 -23.148563 39.907291 -29.599758 -171.36914
-0.4907124 -41.933193 -20.447971 21.488901 -30.022072 -171.46761 -24.020773 35.981655
-22.949877 39.965717 -29.70705 -172.02673 -20.551674 20.416059 -0.078123398 -41.898346
-29.68491 -172.10109 -24.348452 35.425892 -0.51952177 -41.809887 -19.700365 19.960585
40000000 -18.933216 13.438575 -0.48951858 -55.364868 -21.506807 25.855276 -28.21529 171.29083
-0.58629215 -55.300915 -19.219957 9.3790007 -28.661726 171.14447 -22.454939 22.077906
-21.291945 25.718994 -28.331724 170.42442 -19.289301 9.4044733 -0.16392253 -55.327263
-28.330425 170.12489 -22.79789 21.691113 -0.61409694 -55.224121 -18.428432 8.281724
50000000 -18.348087 1.4479725 -0.56667328 -68.609764 -20.673481 12.260345 -27.40251 154.94272
-0.66386771 -68.518646 -18.649837 -2.4648438 -27.887569 154.78874 -21.658297 8.556427
-20.463369 11.983966 -27.573271 153.93555 -18.807642 -2.2989624 -0.2406175 -68.618187
-27.571146 153.4044 -22.01475 8.1836452 -0.69135565 -68.491905 -17.81262 -3.011668
60000000 -18.255926 -9.9975395 -0.65763724 -82.047768 -20.327049 -0.66623884 -26.703785 141.07561
-0.71123236 -81.857262 -18.500839 -13.956643 -27.189186 141.13458 -21.259645 -4.6946054
-20.114075 -0.97508198 -26.936884 140.15585 -18.822451 -12.791434 -0.28393817 -81.905952
-26.981819 139.24016 -21.693859 -5.1666608 -0.76300699 -81.898735 -17.615744 -13.694202
70000000 -18.621058 -21.158915 -0.72173601 -95.329437 -20.472176 -13.712099 -25.903765 127.43433
-0.77438164 -95.123047 -18.781523 -25.846308 -26.384098 127.49595 -21.366491 -18.659359
-20.280664 -14.034335 -26.160585 126.54644 -19.252979 -23.028349 -0.35264239 -95.224464
-26.263515 125.46227 -21.839214 -19.172283 -0.83117473 -95.224899 -17.859901 -24.600119
80000000 -19.582769 -31.382086 -0.78889859 -108.61098 -21.245163 -26.060202 -25.042007 113.57818
-0.84178901 -108.39556 -19.656054 -37.952137 -25.521286 113.66018 -22.104477 -33.146595
-21.086613 -26.399454 -25.344847 112.74068 -20.299664 -32.827209 -0.42624888 -108.55116
-25.498728 111.79768 -22.632498 -33.657433 -0.90744275 -108.53722 -18.682903 -35.505878
90000000 -21.221161 -38.719223 -0.87224865 -121.9627 -22.74819 -36.171795 -23.936256 99.335518
-0.92424291 -121.72626 -21.262369 -49.420593 -24.43738 99.461357 -23.605659 -47.640137
-22.614929 -36.255203 -24.289515 98.720276 -22.161386 -39.619606 -0.51922196 -121.92613
-24.498926 97.956924 -24.260841 -48.160603 -0.99812222 -121.8944 -20.213408 -45.747753
100000000 -23.604334 -38.011288 -0.99951088 -135.21025 -25.158756 -39.500046 -22.643826 81.808113
-1.049383 -134.96558 -24.203638 -58.581024 -23.136868 82.135887 -26.610783 -62.284317
-25.01874 -39.084393 -23.015562 81.622231 -24.913401 -36.122677 -0.65839624 -135.17619
-23.26816 81.175621 -27.535467 -62.387196 -1.1332668 -135.13248 -22.891745 -53.807415
110000000 -24.649069 -23.039042 -1.1741878 -148.03934 -26.686808 -27.477484 -21.448881 59.631718
-1.2207989 -147.79828 -29.289547 -50.448597 -21.920996 60.098663 -33.205872 -63.847038
-26.43568 -27.065619 -21.798298 59.870483 -25.50123 -15.430325 -0.84310919 -147.9424
-22.062794 59.837444 -34.920582 -58.51807 -1.3120245 -147.9232 -27.173813 -46.959625
120000000 -23.199913 -18.89843 -1.3094463 -159.91415 -25.575138 -25.089226 -21.083651 31.952353
-1.3538353 -159.71269 -29.390137 -9.4126673 -21.527237 32.412212 -35.38055 -0.038307074
-25.320877 -25.135344 -21.383411 32.457027 -23.390354 -12.327497 -0.97834063 -159.74059
-21.625301 32.702007 -34.408344 8.962183 -1.4455848 -159.77298 -27.846191 -14.542079
130000000 -22.991798 -24.941452 -1.2841098 -171.58871 -26.031101 -34.566616 -21.847923 4.5259819
-1.3325615 -171.41226 -25.938271 -1.4443867 -22.267927 4.9557614 -30.129051 11.297495
-25.785164 -34.797977 -22.086388 5.0766973 -22.996365 -19.369719 -0.94610977 -171.36989
-22.314789 5.4665661 -29.599133 11.657412 -1.4198346 -171.44765 -24.975142 -4.6324468
140000000 -24.900488 -25.787848 -1.0983009 176.0793 -30.363972 -38.845413 -24.351488 -20.406584
-1.1507125 176.25313 -25.335724 -8.0968828 -24.730463 -20.06743 -30.17428 5.5481224
-30.109066 -39.524975 -24.52529 -19.941269 -24.603291 -19.315939 -0.751127 176.27534
-24.771521 -19.44895 -29.939669 4.259294 -1.2312984 176.21295 -24.31316 -10.299043
150000000 -25.679056 -7.9902267 -0.92809075 162.64397 -33.227772 12.409828 -28.125055 -32.474876
-0.98367542 162.82645 -25.652349 -1.2084342 -28.490723 -32.308285 -30.08839 27.024067
-33.131466 11.951283 -28.266058 -32.169022 -24.603163 -4.3423786 -0.58155137 162.81271
-28.492561 -31.46838 -30.228073 25.235508 -1.0652397 162.76894 -24.455725 -4.9360375
160000000 -22.802645 4.4842281 -0.8922168 148.5708 -26.261311 30.811533 -29.722687 -18.421387
-0.95001501 148.75929 -23.134148 9.8042402 -30.090338 -18.958929 -25.187681 36.360794
-26.115337 30.832396 -29.83919 -18.915092 -21.921272 2.3855431 -0.54732877 148.73178
-30.016315 -17.740881 -25.416903 35.831364 -1.0305871 148.70297 -22.250015 4.8752375
170000000 -20.354109 -0.57987148 -0.95095259 134.91347 -22.720251 20.764774 -27.959599 -18.571459
-1.0101837 135.10924 -20.480238 4.0092988 -28.415722 -19.089949 -22.039194 24.603741
-22.554533 20.784689 -28.167286 -19.241514 -19.899878 -4.1650519 -0.60714835 135.0697
-28.271313 -18.307478 -22.260025 24.344975 -1.0888795 135.04787 -19.73443 0.02763476
180000000 -19.029026 -9.0189095 -1.0038127 121.62413 -20.877966 9.9104099 -26.929779 -28.865646
-1.0640032 121.8195 -18.970493 -5.6753607 -27.419964 -29.227783 -20.3792 11.931113
-20.705189 9.9504499 -27.179371 -29.376036 -18.830463 -12.55102 -0.65897334 121.78207
-27.271942 -28.723745 -20.610138 11.731624 -1.1413137 121.75651 -18.240017 -8.8298826
190000000 -18.148111 -17.220411 -1.0442407 108.31206 -19.554632 -0.19204803 -26.171671 -38.389278
-1.1043279 108.51951 -17.917521 -15.070693 -26.659271 -38.699154 -19.15151 0.22342575
-19.380901 -0.18692969 -26.444387 -38.941818 -18.056755 -20.483326 -0.69685894 108.45996
-26.548277 -38.356621 -19.403856 0.070638038 -1.1826414 108.43653 -17.200205 -17.562458
200000000 -17.498085 -26.693306 -1.1107746 94.989388 -18.569393 -11.956136 -25.055456 -50.057281
-1.1692536 95.194519 -17.111322 -25.957373 -25.589457 -50.372723 -18.1957 -13.175433
-18.395899 -11.870818 -25.376997 -50.548092 -17.459497 -30.323042 -0.76216012 95.115227
-25.477945 -49.952198 -18.472557 -13.23079 -1.2469195 95.111229 -16.403351 -27.775621
210000000 -17.311522 -37.641937 -1.1928514 81.899208 -18.161095 -24.917582 -24.134363 -65.797867
-1.2511954 82.106972 -16.761572 -38.597725 -24.718569 -65.786781 -17.78224 -28.242014
-17.980076 -24.741442 -24.522268 -65.883682 -17.416775 -42.09951 -0.84587705 81.991936
-24.597977 -65.355797 -18.071468 -28.111 -1.3262966 82.006691 -16.076017 -39.86573
220000000 -17.736675 -48.397099 -1.2544978 69.017693 -18.377506 -37.299404 -23.762817 -82.764297
-1.3125588 69.220467 -16.985426 -51.786949 -24.357016 -82.193123 -17.990084 -43.483219
-18.17627 -37.032768 -24.160553 -82.174561 -18.10253 -53.390388 -0.90937537 69.098076
-24.235455 -81.880234 -18.282867 -43.171566 -1.3878255 69.08905 -16.328665 -52.549229
230000000 -18.716511 -56.858192 -1.2818086 56.134762 -19.104515 -47.454746 -23.811079 -97.827568
-1.3400602 56.329391 -17.76038 -64.392555 -24.340071 -96.805786 -18.756678 -57.760731
-18.869974 -47.240456 -24.144939 -96.644676 -19.408707 -61.472012 -0.93997711 56.200928
-24.240524 -96.580284 -19.043036 -57.336025 -1.4188619 56.168896 -17.122793 -64.680603
240000000 -19.961308 -61.516071 -1.3000959 43.038166 -20.121235 -54.491718 -23.77121 -109.90691
-1.3575571 43.230984 -18.995586 -75.988922 -24.232338 -108.74147 -19.983496 -71.196243
-19.855577 -54.492859 -24.014442 -108.40063 -20.955471 -64.805061 -0.95983607 43.105644
-24.158388 -108.4472 -20.274078 -70.613464 -1.4406019 43.061905 -18.367281 -75.952415
250000000 -21.313406 -61.705338 -1.3422533 29.818895 -21.23597 -58.194408 -23.311739 -121.41068
-1.4001127 30.002073 -20.89609 -86.815186 -23.716524 -120.30327 -21.921516 -84.380402
-20.969837 -58.57222 -23.477476 -119.97939 -22.526024 -63.114536 -1.0073588 29.892153
-23.644104 -119.85307 -22.232933 -83.619431 -1.4867492 29.846891 -20.20928 -86.118889
260000000 -22.0998 -56.871983 -1.4215896 16.632401 -22.177422 -58.455582 -22.514238 -135.01587
-1.4794 16.814293 -23.881533 -93.914368 -22.855581 -133.92044 -25.170881 -96.081268
-21.952915 -59.153625 -22.604883 -133.595 -23.470524 -54.437225 -1.0888771 16.732916
-22.802517 -133.42558 -25.530052 -94.76416 -1.5730356 16.677208 -23.060144 -93.130791
270000000 -21.960514 -51.555332 -1.5270483 3.7393727 -22.654932 -57.023064 -21.759651 -151.8748
-1.5866969 3.9063697 -28.320749 -85.241684 -22.066248 -151.06062 -31.237251 -94.8116
-22.512115 -57.774467 -21.798216 -150.74858 -22.929331 -45.844185 -1.1939154 3.8524897
-22.007521 -150.38264 -31.609365 -91.60685 -1.6801454 3.7991104 -27.101807 -84.324844
280000000 -21.29353 -50.58186 -1.6218803 -8.7838163 -22.766563 -57.733227 -21.331888 -171.2243
-1.6825596 -8.6107302 -29.257658 -47.642654 -21.616274 -170.63405 -34.874352 -36.296597
-22.678743 -58.04327 -21.337595 -170.39302 -21.792131 -44.030903 -1.2858596 -8.6488008
-21.545528 -169.86041 -34.41613 -33.030186 -1.7732934 -8.7086124 -27.888714 -51.865231
290000000 -20.885506 -53.690777 -1.6506817 -21.055433 -23.303856 -60.985653 -21.478212 168.728
-1.7142438 -20.885286 -25.968889 -34.192707 -21.744476 169.14381 -29.820375 -13.863073
-23.208715 -60.862831 -21.454588 169.29504 -21.05765 -47.039211 -1.3120457 -20.927753
-21.665237 169.9147 -29.529633 -14.019447 -1.8015059 -20.980364 -25.062046 -39.009621
300000000 -20.980202 -55.490269 -1.6194073 -33.597954 -24.640223 -59.192169 -22.077927 151.62688
-1.6832362 -33.412853 -24.076962 -33.995983 -22.316751 151.79007 -27.325451 -9.8390493
-24.51754 -58.860817 -22.026213 151.87077 -20.747765 -48.846062 -1.2799858 -33.473473
-22.243971 152.54324 -27.181026 -11.004475 -1.769081 -33.519756 -23.313766 -37.922638
310000000 -20.794092 -55.777065 -1.6023288 -46.35844 -25.193533 -49.928101 -22.462162 136.21706
-1.6666998 -46.172638 -22.540104 -34.931759 -22.697334 136.09587 -24.999203 -8.4281721
-25.022699 -49.426125 -22.403372 136.17616 -20.171143 -50.822701 -1.2624768 -46.234566
-22.621799 137.03198 -24.988779 -9.8446417 -1.7525316 -46.269104 -21.840239 -38.21711
320000000 -20.69187 -57.411205 -1.5700446 -59.066341 -24.958244 -39.93969 -23.067778 119.85907
-1.6332165 -58.878765 -21.459885 -39.007153 -23.28669 119.55347 -23.256319 -11.10219
-24.732531 -39.5718 -22.992857 119.5327 -19.887693 -54.576252 -1.2260321 -58.9478
-23.215479 120.47033 -23.337996 -12.599841 -1.7164047 -58.967388 -20.773319 -41.598385
330000000 -20.61446 -56.014294 -1.5067792 -72.104637 -23.442495 -28.790073 -24.104692 107.32948
-1.5679656 -71.910156 -20.764683 -40.75388 -24.323837 106.64978 -21.620211 -12.377783
-23.219141 -28.741064 -24.029263 106.53666 -19.725723 -55.595177 -1.163782 -71.995621
-24.266529 107.67036 -21.7946 -13.695451 -1.6522471 -72.015251 -20.121572 -43.1413
340000000 -19.686861 -55.579216 -1.502828 -85.452789 -20.866425 -28.567841 -24.371134 99.17717
-1.564968 -85.255325 -19.493292 -42.72879 -24.616024 98.089584 -19.554562 -17.818132
-20.65332 -28.572908 -24.332697 98.001488 -18.924356 -57.431183 -1.1599984 -85.33596
-24.567698 99.45845 -19.76465 -18.767319 -1.6486162 -85.35408 -18.961849 -44.804066
350000000 -18.956825 -60.672733 -1.5328231 -98.454163 -19.206551 -35.933697 -24.229803 86.066742
-1.5940454 -98.258652 -18.361328 -49.896599 -24.505962 84.804276 -18.09207 -28.136791
-18.993298 -35.958328 -24.220062 84.702965 -18.380968 -63.591755 -1.1860199 -98.321091
-24.432011 86.330139 -18.303593 -28.917164 -1.6748935 -98.33947 -17.922674 -51.517796
360000000 -18.55225 -65.501617 -1.5315186 -111.39267 -18.047613 -43.410538 -24.576555 72.617561
-1.5928909 -111.19532 -17.646221 -58.066444 -24.863846 70.940758 -17.117249 -38.568989
-17.842682 -43.49445 -24.580839 70.802094 -18.093195 -69.414391 -1.1788279 -111.26877
-24.784754 72.826363 -17.341198 -39.194756 -1.6674597 -111.28162 -17.319639 -59.232754
370000000 -18.134794 -71.369148 -1.5332551 -124.40381 -17.101912 -52.474098 -24.834831 60.374905
-1.5949219 -124.20974 -17.111721 -67.466721 -25.219305 58.45142 -16.38921 -49.809185
-16.899881 -52.57251 -24.941166 58.324474 -17.891722 -76.335167 -1.1763434 -124.30234
-25.052464 60.667416 -16.609144 -50.313408 -1.6616818 -124.31394 -16.812883 -67.827324
380000000 -18.03833 -78.61409 -1.5285683 -137.2831 -16.612211 -62.64407 -25.205511 46.341396
-1.5926968 -137.08064 -16.949003 -78.081062 -25.643797 44.513462 -16.073709 -61.748756
-16.411869 -62.747139 -25.360949 44.42041 -18.012268 -83.918686 -1.1670282 -137.2178
-25.421886 46.606625 -16.293985 -62.205025 -1.654217 -137.24203 -16.629721 -78.131622
390000000 -18.262068 -84.081375 -1.4678162 -150.26595 -16.44326 -71.410629 -26.500145 34.64016
-1.5301113 -150.06596 -17.16461 -87.087517 -26.990248 32.608227 -16.078022 -72.107201
-16.246796 -71.537643 -26.716593 32.493107 -18.404335 -89.682213 -1.1078595 -150.25436
-26.728882 34.913586 -16.305494 -72.461349 -1.5946201 -150.27017 -16.804733 -86.938446
400000000 -18.224821 -89.254967 -1.4325041 -163.82358 -16.211357 -80.645058 -27.110594 34.149075
-1.4942532 -163.6266 -17.081284 -95.898849 -27.767181 32.261086 -15.907373 -83.129715
-16.01605 -80.791916 -27.485046 32.218266 -18.578037 -95.26033 -1.0716319 -163.82645
-27.324286 34.637054 -16.134735 -83.361404 -1.5596528 -163.83984 -16.683155 -95.497162
410000000 -18.458673 -96.233887 -1.4636594 -177.30931 -16.346987 -91.385162 -26.222466 29.762724
-1.5239249 -177.11723 -17.297726 -108.36584 -26.973017 29.140972 -16.177471 -97.276993
-16.155005 -91.588646 -26.685055 29.075436 -19.114582 -102.29999 -1.1021892 -177.36438
-26.414801 30.273352 -16.397068 -97.428688 -1.5890112 -177.37744 -16.832546 -107.46972
420000000 -19.090948 -102.37167 -1.5073038 169.38028 -16.93705 -101.88995 -25.281057 20.081261
-1.5694656 169.57169 -18.245766 -121.53246 -25.957718 20.55467 -17.186811 -111.92182
-16.753263 -102.14359 -25.669985 20.471716 -20.151104 -107.45469 -1.1528755 169.30484
-25.454363 20.480391 -17.401365 -112.02543 -1.640312 169.27898 -17.733013 -120.00782
430000000 -19.97419 -106.06 -1.5546303 156.13918 -17.94083 -111.00159 -24.499901 8.7224531
-1.6163088 156.32484 -19.995384 -133.24854 -25.042759 9.7454443 -18.947865 -125.50446
-17.776022 -111.27004 -24.74395 9.6749411 -21.312244 -107.83421 -1.2037053 156.06065
-24.663195 9.0385733 -19.164856 -125.50581 -1.6903268 156.01459 -19.379721 -130.58807
440000000 -20.908726 -106.8446 -1.6070138 142.93839 -19.368038 -118.21312 -23.776028 -3.7249205
-1.6690128 143.12613 -22.690748 -141.59241 -24.188868 -2.8064852 -21.648483 -137.22308
-19.224323 -118.4464 -23.890856 -2.9119966 -22.174755 -104.98663 -1.2591363 142.85803
-23.928524 -3.4820094 -21.86492 -136.96477 -1.7486521 142.81409 -21.872656 -137.36897
450000000 -21.662453 -104.41255 -1.6625397 129.77551 -21.240589 -121.88248 -23.102076 -16.983374
-1.7268125 129.96405 -26.677946 -141.98613 -23.442144 -16.396111 -25.929737 -144.93854
-21.119005 -122.00561 -23.135855 -16.534554 -22.642241 -100.02848 -1.3203396 129.70081
-23.240875 -16.868677 -26.114277 -144.01781 -1.8101996 129.67021 -25.323856 -136.0417
460000000 -21.927092 -99.912064 -1.7271388 116.66217 -23.433371 -119.22375 -22.481758 -30.977812
-1.7906653 116.85267 -31.534544 -116.47237 -22.774689 -30.705601 -34.099506 -132.71468
-23.329424 -119.00308 -22.467098 -30.934566 -22.54648 -93.639221 -1.386252 116.60483
-22.61372 -31.012827 -33.909779 -130.1245 -1.8758066 116.57851 -28.971964 -115.20564
470000000 -21.571978 -95.740051 -1.7975062 103.61462 -25.232193 -106.51159 -21.915226 -45.589577
-1.8601526 103.80763 -29.791485 -70.000259 -22.179234 -45.672215 -33.037937 -38.746696
-25.074894 -105.87956 -21.878019 -45.985802 -21.675028 -88.678284 -1.4558941 103.56853
-22.048519 -45.777416 -32.952328 -42.793957 -1.9463686 103.54712 -28.309118 -79.450432
480000000 -20.801611 -93.996529 -1.8705745 90.627251 -25.058458 -87.570496 -21.40951 -60.708382
-1.9342455 90.825378 -25.302202 -58.69379 -21.662991 -61.228161 -25.504601 -30.475718
-24.821384 -87.04377 -21.363028 -61.542709 -20.394499 -88.569061 -1.5293918 90.59964
-21.549534 -61.041149 -25.718853 -32.819981 -2.0205023 90.58963 -24.803511 -65.809013
490000000 -19.898811 -95.468346 -1.9505117 77.722908 -23.073927 -76.161041 -20.951067 -76.350525
-2.0136929 77.92852 -22.164806 -61.908615 -21.218924 -77.249374 -21.455948 -37.653343
-22.813929 -76.058578 -20.924648 -77.603836 -19.259184 -92.916267 -1.6062086 77.718536
-21.103374 -76.821442 -21.716368 -39.376019 -2.0962012 77.717331 -21.940155 -66.930115
500000000 -19.064861 -99.433113 -2.0306804 64.934128 -20.872171 -74.587227 -20.557896 -92.563538
-2.0943825 65.140198 -20.000204 -69.834183 -20.853954 -93.703026 -18.847675 -47.844147
-20.627394 -74.743347 -20.559797 -94.087776 -18.461992 -99.460831 -1.6835737 64.939926
-20.724602 -93.168846 -19.124643 -49.274303 -2.1724131 64.943329 -19.882301 -73.627037
510000000 -18.395868 -105.35341 -2.1085052 52.282978 -19.069599 -78.664581 -20.2432 -109.38668
-2.1704266 52.501549 -18.47467 -79.793434 -20.557112 -110.65629 -17.032349 -59.107029
-18.847818 -78.935417 -20.265341 -111.11923 -17.928545 -106.88707 -1.7585595 52.292667
-20.431242 -110.1188 -17.323782 -60.348118 -2.2487869 52.305534 -18.400726 -82.830521
520000000 -17.985611 -112.60957 -2.180908 39.789028 -17.73373 -85.579155 -20.02562 -126.93694
-2.2410386 40.009823 -17.415462 -90.775589 -20.355635 -128.36739 -15.756274 -70.895508
-17.531794 -85.888084 -20.073923 -128.90573 -17.594196 -115.08105 -1.820124 39.810619
-20.237921 -127.70934 -16.064009 -71.98568 -2.3111799 39.824017 -17.342056 -93.257629
530000000 -17.866793 -120.41876 -2.230572 27.503262 -16.821512 -93.721771 -19.979792 -145.33212
-2.2915308 27.730028 -16.759901 -102.33108 -20.341589 -146.97562 -14.92846 -82.92485
-16.633987 -94.014107 -20.070536 -147.51103 -17.536295 -123.868 -1.8575332 27.482111
-20.218506 -146.13216 -15.243625 -83.819351 -2.3472536 27.51119 -16.678091 -104.25858
540000000 -18.034302 -127.55891 -2.2268941 15.286563 -16.193689 -101.80055 -20.267132 -163.67067
-2.289156 15.513354 -16.495296 -113.30843 -20.669949 -165.42444 -14.454264 -94.21962
-16.017942 -102.03783 -20.405144 -165.9292 -17.754539 -131.99414 -1.8433335 15.14683
